!! F = 1.0 GHz
!
! Frequency: F=+1.00000E+09
!
! Quiescent point : Vgs=-2.20E-03 Vds=+5.12E-03
! Pulsed point : Vds=+5.35839E-03
! Dummi Vgs_pulsed shift value : V_delta=6.0
! Period : +2.00000E-04
! Input Supply timing : delay=+1.80000E-05 width=+5.50000E-06
! Output Supply timing : delay=+1.93000E-05 width=+3.00000E-06
! RF timing : delay=+2.07000E-05 width=+1.40000E-06
! VNA timing : delay=+2.12000E-05 width=+8.00000E-07
# Hz S RI R 50
2.00462 +9.69203E-01 -1.15941E-01 +7.70555E-03 +4.06683E-02 +8.95398E-03 +4.19316E-02 +9.81772E-01 -9.22724E-02
2.20361 +9.72104E-01 -1.19669E-01 +7.38966E-03 +4.41104E-02 +9.94712E-03 +4.19403E-02 +9.80004E-01 -9.10639E-02
2.40403 +9.72890E-01 -1.20416E-01 +8.84307E-03 +4.29290E-02 +8.70953E-03 +4.31327E-02 +9.83032E-01 -9.22133E-02
2.60406 +9.74760E-01 -1.21239E-01 +9.49953E-03 +4.41417E-02 +7.74802E-03 +4.60108E-02 +9.83269E-01 -9.46682E-02
2.80288 +9.77481E-01 -1.23100E-01 +8.50732E-03 +4.82060E-02 +9.33530E-03 +4.50547E-02 +9.82151E-01 -9.45986E-02
3.00436 +9.78154E-01 -1.25231E-01 +7.47587E-03 +4.84253E-02 +9.18598E-03 +4.65328E-02 +9.82467E-01 -9.64503E-02
3.10462 +9.78508E-01 -1.27989E-01 +8.42960E-03 +4.88059E-02 +1.14660E-02 +4.82011E-02 +9.81584E-01 -1.00076E-01
3.20478 +9.79613E-01 -1.29512E-01 +7.87063E-03 +4.92367E-02 +8.89886E-03 +4.98871E-02 +9.82603E-01 -9.78953E-02
3.30295 +9.79939E-01 -1.31705E-01 +7.27595E-03 +5.11762E-02 +9.44009E-03 +4.97585E-02 +9.84264E-01 -9.96625E-02
3.40441 +9.77691E-01 -1.32305E-01 +9.67846E-03 +5.26533E-02 +1.05149E-02 +5.39612E-02 +9.80480E-01 -1.03388E-01
3.50363 +9.79509E-01 -1.34817E-01 +1.02520E-02 +5.73525E-02 +9.56019E-03 +5.66330E-02 +9.81805E-01 -1.04282E-01
3.55384 +9.78990E-01 -1.40060E-01 +7.21380E-03 +5.74198E-02 +9.99933E-03 +5.71197E-02 +9.81594E-01 -1.07768E-01
3.60389 +9.78859E-01 -1.41661E-01 +1.03767E-02 +6.12922E-02 +9.69106E-03 +6.17900E-02 +9.80264E-01 -1.11101E-01
3.65345 +9.80068E-01 -1.46657E-01 +9.65429E-03 +6.27144E-02 +1.10844E-02 +6.13450E-02 +9.80237E-01 -1.12558E-01
3.7039 +9.76666E-01 -1.48436E-01 +1.35627E-02 +6.49784E-02 +1.18614E-02 +6.55233E-02 +9.78839E-01 -1.14995E-01
3.75371 +9.77345E-01 -1.52352E-01 +1.23148E-02 +6.97019E-02 +1.06957E-02 +6.84568E-02 +9.79627E-01 -1.18640E-01
3.80384 +9.77903E-01 -1.58908E-01 +1.44126E-02 +7.21853E-02 +1.51106E-02 +6.86609E-02 +9.79605E-01 -1.21687E-01
3.85316 +9.76848E-01 -1.60775E-01 +1.54679E-02 +7.38922E-02 +1.23761E-02 +7.55843E-02 +9.77519E-01 -1.24647E-01
3.90434 +9.72788E-01 -1.66194E-01 +1.51548E-02 +7.67055E-02 +1.47133E-02 +7.64716E-02 +9.76270E-01 -1.27932E-01
3.9535 +9.71701E-01 -1.69126E-01 +1.60027E-02 +8.20277E-02 +1.85366E-02 +8.12610E-02 +9.75467E-01 -1.30231E-01
4.00307 +9.73461E-01 -1.77524E-01 +1.40189E-02 +8.84688E-02 +1.63487E-02 +8.56636E-02 +9.67331E-01 -1.33852E-01
4.0536 +9.72021E-01 -1.84567E-01 +1.36860E-02 +8.77569E-02 +1.88343E-02 +8.74368E-02 +9.45862E-01 -1.34871E-01
4.10381 +9.67148E-01 -1.92887E-01 +1.11169E-02 +9.33767E-02 +1.80466E-02 +8.91512E-02 +8.95796E-01 -1.30026E-01
4.15297 +9.66139E-01 -2.01930E-01 +2.82445E-03 +9.47591E-02 +1.87714E-02 +9.05050E-02 +7.94258E-01 -1.21410E-01
4.20254 +9.60104E-01 -2.11293E-01 -7.12420E-03 +9.17372E-02 +1.72537E-02 +8.46673E-02 +6.39825E-01 -1.02147E-01
4.25395 +9.61625E-01 -2.21207E-01 -9.85196E-03 +8.44119E-02 +1.70052E-02 +7.72128E-02 +4.47479E-01 -8.11847E-02
4.30384 +9.59737E-01 -2.28339E-01 -1.24053E-02 +7.35767E-02 +1.20633E-02 +6.98085E-02 +2.67032E-01 -5.81997E-02
4.35357 +9.58718E-01 -2.35702E-01 -1.15187E-02 +7.01336E-02 +1.41869E-02 +6.27826E-02 +1.20201E-01 -4.24110E-02
4.40386 +9.57318E-01 -2.42169E-01 -6.26761E-03 +5.84286E-02 +1.24499E-02 +5.56829E-02 +6.31698E-03 -3.26308E-02
4.45366 +9.59101E-01 -2.44147E-01 -4.92808E-03 +5.27435E-02 +1.00920E-02 +5.12056E-02 -7.82332E-02 -2.67858E-02
4.50251 +9.54197E-01 -2.47282E-01 -2.88709E-03 +4.89822E-02 +9.42777E-03 +4.62800E-02 -1.42174E-01 -2.12189E-02
4.55288 +9.53844E-01 -2.51459E-01 -1.78634E-03 +4.53574E-02 +8.81948E-03 +4.48250E-02 -1.89651E-01 -1.81134E-02
4.60285 +9.53126E-01 -2.51528E-01 +3.36544E-04 +4.29734E-02 +8.96113E-03 +4.14712E-02 -2.27862E-01 -1.66154E-02
4.65281 +9.55056E-01 -2.52068E-01 -8.12579E-04 +4.07346E-02 +6.89686E-03 +3.94869E-02 -2.55297E-01 -1.57060E-02
4.70318 +9.56843E-01 -2.51238E-01 +6.42747E-04 +3.72381E-02 +8.69787E-03 +3.80579E-02 -2.75530E-01 -1.23157E-02
4.75235 +9.53028E-01 -2.53838E-01 +4.15096E-03 +3.79222E-02 +8.41537E-03 +3.65581E-02 -2.93990E-01 -1.15014E-02
4.80328 +9.56114E-01 -2.55669E-01 +2.47265E-03 +3.62784E-02 +5.26708E-03 +3.53096E-02 -3.09487E-01 -1.11721E-02
4.85269 +9.55076E-01 -2.56986E-01 +3.70190E-03 +3.54486E-02 +7.97136E-03 +3.40190E-02 -3.23290E-01 -9.61869E-03
4.90346 +9.54881E-01 -2.54279E-01 +4.97880E-03 +3.64913E-02 +7.10287E-03 +3.51708E-02 -3.31857E-01 -9.67474E-03
4.95326 +9.54086E-01 -2.56171E-01 +3.32910E-03 +3.60639E-02 +7.54936E-03 +3.22930E-02 -3.41826E-01 -8.58566E-03
5.00316 +9.52259E-01 -2.59905E-01 +4.74744E-03 +3.64340E-02 +5.29540E-03 +3.29428E-02 -3.48268E-01 -8.72285E-03
5.05304 +9.53074E-01 -2.56812E-01 +5.02996E-03 +3.47355E-02 +8.79920E-03 +3.24768E-02 -3.55263E-01 -8.17727E-03
5.10221 +9.56010E-01 -2.54405E-01 +6.92946E-03 +3.27437E-02 +6.61494E-03 +3.34019E-02 -3.59684E-01 -8.44761E-03
5.15378 +9.53757E-01 -2.57501E-01 +5.30724E-03 +3.21816E-02 +7.12311E-03 +3.12171E-02 -3.65953E-01 -7.77324E-03
5.20223 +9.54036E-01 -2.58318E-01 +5.73552E-03 +3.31087E-02 +8.47069E-03 +3.28576E-02 -3.71709E-01 -6.81123E-03
5.25171 +9.53507E-01 -2.57681E-01 +4.92591E-03 +3.23433E-02 +7.50866E-03 +3.33016E-02 -3.73977E-01 -6.90449E-03
5.30288 +9.54012E-01 -2.58633E-01 +6.35678E-03 +3.17056E-02 +6.53785E-03 +3.19800E-02 -3.77794E-01 -7.63361E-03
5.40154 +9.53934E-01 -2.60810E-01 +4.38690E-03 +3.14209E-02 +6.77009E-03 +3.10369E-02 -3.82704E-01 -7.09661E-03
5.50284 +9.53860E-01 -2.61329E-01 +3.51569E-03 +3.21349E-02 +5.56285E-03 +3.19310E-02 -3.90563E-01 -7.75365E-03
5.60173 +9.55330E-01 -2.59783E-01 +5.68559E-03 +3.23208E-02 +4.73674E-03 +3.04058E-02 -3.94543E-01 -6.49580E-03
5.70199 +9.52423E-01 -2.60473E-01 +4.45803E-03 +3.22946E-02 +6.36089E-03 +3.18374E-02 -3.96131E-01 -7.69554E-03
5.80136 +9.51266E-01 -2.60092E-01 +7.51404E-03 +3.02040E-02 +7.96072E-03 +2.89575E-02 -4.00224E-01 -5.79187E-03
5.90202 +9.51725E-01 -2.61704E-01 +5.74595E-03 +3.08959E-02 +5.67676E-03 +3.08359E-02 -4.04858E-01 -7.22182E-03
6.00276 +9.53638E-01 -2.62900E-01 +6.43202E-03 +3.06103E-02 +5.52217E-03 +3.08937E-02 -4.06279E-01 -9.03186E-03
6.20215 +9.54371E-01 -2.64826E-01 +3.69599E-03 +3.18680E-02 +7.13803E-03 +3.08952E-02 -4.09752E-01 -7.04015E-03
6.40283 +9.51662E-01 -2.62754E-01 +6.47599E-03 +3.05472E-02 +5.33442E-03 +2.95414E-02 -4.13142E-01 -5.72041E-03
6.6015 +9.50908E-01 -2.64629E-01 +6.66769E-03 +3.11497E-02 +7.24134E-03 +3.15793E-02 -4.14474E-01 -6.03209E-03
6.80161 +9.51419E-01 -2.62284E-01 +5.83754E-03 +3.02577E-02 +3.94973E-03 +3.13310E-02 -4.17237E-01 -4.98494E-03
7.00188 +9.50214E-01 -2.64082E-01 +5.83988E-03 +3.03726E-02 +3.80901E-03 +2.92787E-02 -4.18742E-01 -5.01542E-03
