!!A1
! Frequency : +2.00000E+08
# Hz S RI R 50
3.99537668 +9.82483E-01 -1.94175E-02 +4.62582E-03 +1.14615E-02 +3.02433E-03 +1.63985E-02 +9.89160E-01 -2.24310E-02
3.79638668 +9.80210E-01 -1.45763E-02 +4.35424E-03 +1.35724E-02 +1.10881E-02 +9.35605E-03 +9.86779E-01 -2.40837E-02
3.59596668 +9.91416E-01 -2.60010E-02 +5.55068E-03 +9.08104E-03 -1.58643E-03 +1.34921E-02 +9.89745E-01 -2.36748E-02
3.39593668 +9.79789E-01 -2.84281E-02 +3.21488E-03 +7.79607E-03 -1.93633E-03 +1.42209E-02 +9.91033E-01 -2.90171E-02
3.19711668 +9.88040E-01 -3.46139E-02 +6.16735E-03 +4.41297E-03 -1.40097E-03 +4.03949E-03 +9.90812E-01 -2.42580E-02
2.99563668 +9.82282E-01 -2.77844E-02 -3.73187E-03 +1.23088E-02 -3.62312E-03 +1.73015E-02 +9.86767E-01 -2.88422E-02
2.89537668 +9.89924E-01 -2.70992E-02 -6.38683E-04 +1.32346E-02 +1.67085E-03 +1.23395E-02 +9.85513E-01 -3.34978E-02
2.79521668 +9.93623E-01 -3.60022E-02 +1.30177E-03 +1.52739E-02 +5.87442E-03 +5.57845E-03 +9.90398E-01 -3.03285E-02
2.69704668 +9.90265E-01 -2.84785E-02 +1.15590E-03 +1.69731E-02 -2.11185E-04 +1.67224E-02 +9.95864E-01 -3.11549E-02
2.59558668 +9.95330E-01 -3.75679E-02 -3.63357E-03 +1.11700E-02 +4.18766E-03 +1.14220E-02 +9.81245E-01 -2.57914E-02
2.49636668 +1.00152E+00 -3.10810E-02 +5.68189E-03 +6.93314E-03 -8.33563E-04 +5.07786E-03 +9.92209E-01 -2.63733E-02
2.44615668 +9.93272E-01 -3.07171E-02 -5.12292E-03 +9.78851E-03 +8.42241E-04 +9.36838E-03 +9.95216E-01 -3.19857E-02
2.39610668 +9.88983E-01 -2.46696E-02 +2.27514E-03 +7.50107E-03 +5.34557E-03 +8.08247E-03 +9.91369E-01 -3.24299E-02
2.34654668 +1.00013E+00 -3.19867E-02 +5.74723E-03 +1.17754E-02 +1.99109E-03 +3.04825E-03 +9.90154E-01 -2.64532E-02
2.29609668 +9.91824E-01 -3.30055E-02 -4.72170E-03 +1.70733E-02 -4.11126E-03 +1.72528E-02 +9.97443E-01 -2.99896E-02
2.24628668 +9.94169E-01 -3.20205E-02 -5.33098E-03 +1.28527E-02 +3.99049E-04 +1.88010E-02 +9.99404E-01 -3.29253E-02
2.19615668 +9.82650E-01 -4.02306E-02 +5.93606E-03 +1.80384E-02 +8.74947E-03 +1.81980E-02 +9.90315E-01 -3.89884E-02
2.14683668 +9.94413E-01 -3.55666E-02 +1.41468E-04 +1.34666E-02 +3.91426E-03 +1.14858E-02 +9.88329E-01 -3.22885E-02
2.09565668 +9.93737E-01 -2.23463E-02 -1.23285E-02 +1.17625E-02 -2.33844E-03 +2.18360E-02 +9.92143E-01 -3.30805E-02
2.04649668 +1.00530E+00 -3.97698E-02 +7.71210E-04 +1.22863E-02 +4.00057E-03 +1.52303E-02 +9.86307E-01 -3.12234E-02
1.99692668 +9.89836E-01 -3.22030E-02 -1.22229E-02 +2.24444E-02 +5.47982E-03 +1.01004E-02 +9.82260E-01 -3.10567E-02
1.94639668 +9.90372E-01 -3.12941E-02 -5.02897E-03 +1.21979E-02 +8.32171E-03 +1.63198E-02 +9.59298E-01 -3.71186E-02
1.89618668 +9.98161E-01 -4.21420E-02 -8.35437E-03 +1.89609E-02 +4.66975E-03 +3.37044E-02 +9.15938E-01 -3.18741E-02
1.84702668 +9.91885E-01 -4.03109E-02 -1.37389E-02 +1.62533E-02 +3.29763E-03 +2.07526E-02 +8.20253E-01 -2.15143E-02
1.79745668 +9.90224E-01 -4.65900E-02 -2.05680E-02 +2.03428E-02 +2.97542E-03 +1.46533E-02 +6.56598E-01 -3.00777E-02
1.74604668 +9.94991E-01 -3.57656E-02 -3.17507E-02 +1.86067E-02 -2.47989E-03 +1.25671E-02 +4.64868E-01 -1.86351E-02
1.69615668 +9.90602E-01 -4.63126E-02 -2.83048E-02 +1.90676E-02 +2.95695E-03 +1.53295E-02 +2.78869E-01 -1.46885E-02
1.64642668 +9.77683E-01 -5.10145E-02 -2.32420E-02 +1.81317E-02 +5.11910E-03 +8.82965E-03 +1.25645E-01 -9.14730E-03
1.59613668 +9.94869E-01 -4.87148E-02 -3.03737E-02 +1.74599E-02 +7.00296E-04 +1.05431E-02 +1.29664E-02 -5.16747E-03
1.54633668 +9.89441E-01 -6.26605E-02 -1.15684E-02 +1.72920E-02 -1.67740E-03 +1.39862E-02 -7.46051E-02 -8.26992E-03
1.49748668 +9.76755E-01 -4.42076E-02 -1.22348E-02 +1.00954E-02 +2.93241E-03 +4.91489E-03 -1.41394E-01 +2.43579E-03
1.44711668 +9.97091E-01 -5.62128E-02 -9.95441E-03 +1.10481E-02 +4.52381E-03 +1.73260E-02 -1.86160E-01 -4.66131E-03
1.39714668 +9.92567E-01 -5.34717E-02 -6.71045E-03 +8.86677E-03 -4.01298E-03 +7.85801E-03 -2.15094E-01 +1.33981E-03
1.34718668 +9.95695E-01 -5.05650E-02 -8.76231E-03 +5.17467E-03 +8.69833E-03 +7.23340E-03 -2.54359E-01 +3.86717E-03
1.29681668 +9.93505E-01 -4.93400E-02 -5.06308E-03 +3.91966E-03 +3.04812E-03 +2.52013E-03 -2.74356E-01 -1.50661E-04
1.24764668 +9.88697E-01 -5.83392E-02 -1.97776E-03 +4.04099E-03 -5.82192E-04 +7.19342E-03 -2.88307E-01 -2.69017E-03
1.19671668 +9.84838E-01 -5.19499E-02 -3.67564E-04 +4.91346E-03 +1.81446E-03 +1.95703E-03 -2.99015E-01 -2.75919E-03
1.14730668 +9.86000E-01 -5.19011E-02 -3.13967E-03 +3.77157E-03 -4.79780E-03 +1.41696E-02 -3.14409E-01 +3.96974E-04
1.09653668 +1.00478E+00 -4.95377E-02 +2.81912E-03 +1.10806E-02 +3.16769E-03 +1.08555E-02 -3.29603E-01 +2.60910E-03
1.04673668 +9.92385E-01 -5.91930E-02 +1.22824E-03 +7.35449E-03 +4.42720E-03 -1.71350E-03 -3.44050E-01 -4.80638E-03
0.99684368 +9.94100E-01 -6.20609E-02 +1.03286E-03 +4.90225E-03 -8.48088E-03 +2.81770E-03 -3.46643E-01 -4.27845E-03
0.94695568 +9.95403E-01 -5.43129E-02 -3.12344E-03 -1.29360E-03 -3.61749E-03 +6.74808E-03 -3.54690E-01 +4.50573E-04
0.89778968 +9.90561E-01 -5.29085E-02 +6.79165E-03 +4.40340E-03 +2.18860E-03 +5.18133E-03 -3.52355E-01 -5.26112E-03
0.84621768 +9.93686E-01 -4.99372E-02 +6.04488E-03 -3.24631E-03 -7.25075E-03 +1.59124E-02 -3.66824E-01 +1.64425E-03
0.79777368 +9.94623E-01 -6.33846E-02 +4.56023E-03 +7.58548E-03 +1.61883E-03 +5.48886E-03 -3.70688E-01 -1.15773E-02
0.74828568 +9.83465E-01 -5.12270E-02 -6.01204E-03 +8.68222E-03 +7.75474E-03 +5.59647E-03 -3.73431E-01 -8.60421E-03
0.69711568 +9.92761E-01 -4.87618E-02 -1.38999E-03 -6.21832E-03 -8.16250E-06 +3.31061E-03 -3.71017E-01 -8.09533E-04
0.59846268 +9.93477E-01 -5.42397E-02 +2.40226E-03 +7.15064E-03 +4.13605E-03 +4.58943E-03 -3.85688E-01 -3.91830E-03
0.49716368 +9.98656E-01 -6.59301E-02 +2.42004E-03 +6.50483E-03 -1.88348E-03 +4.29024E-03 -3.83148E-01 -8.80593E-03
0.39826868 +1.00029E+00 -5.00331E-02 -2.49938E-03 +1.41808E-02 +3.64718E-03 +9.30305E-03 -3.90254E-01 +4.35364E-03
0.29801168 +9.98337E-01 -6.34345E-02 +4.48783E-03 +1.34560E-02 -9.46337E-04 +2.10495E-03 -3.93180E-01 -5.03342E-04
0.19863667999999998 +9.91828E-01 -6.19130E-02 -1.61517E-03 +3.26498E-04 -3.10945E-03 +8.55598E-03 -3.98612E-01 -1.14756E-04
0.09797968 +1.00536E+00 -5.79206E-02 -9.86566E-03 +9.37217E-04 +3.86827E-03 -2.77509E-04 -4.08323E-01 -8.90648E-03
-0.002759153 +9.90546E-01 -6.10331E-02 +5.43040E-03 +8.49947E-03 -9.94674E-04 +5.52654E-03 -3.94684E-01 -3.61433E-03
-0.20215132 +9.99465E-01 -5.23496E-02 +5.08609E-03 +8.45428E-03 -3.33920E-03 +4.27774E-03 -4.06922E-01 -4.76036E-03
-0.40282532 +9.95165E-01 -5.67314E-02 +4.41045E-03 +1.03082E-02 -7.51376E-03 +5.57925E-03 -4.12888E-01 +4.91396E-03
-0.60149532 +9.88753E-01 -5.06046E-02 +1.91745E-03 +1.31631E-02 -1.89909E-03 +2.93431E-03 -4.15470E-01 +6.49271E-03
-0.80160832 +9.95705E-01 -5.67879E-02 -1.20859E-03 +1.28152E-02 -1.41657E-03 +5.14339E-03 -4.20064E-01 -2.86436E-03
-1.00188032 +9.94289E-01 -6.48863E-02 +1.25002E-03 +1.06121E-02 -2.69756E-03 +7.35887E-03 -4.22707E-01 -2.31927E-03
!!A2
! Frequency : +2.50000E+08
# Hz S RI R 50
3.99537668 +9.80888E-01 -3.83931E-02 +3.46208E-03 +1.24101E-02 +3.23942E-03 +1.20439E-02 +9.88707E-01 -3.35054E-02
3.79638668 +9.80706E-01 -4.35166E-02 +1.04570E-03 +1.25411E-02 +8.40679E-03 +1.12554E-02 +9.88367E-01 -3.17510E-02
3.59596668 +9.81872E-01 -2.70300E-02 -1.89450E-03 +9.65768E-03 +9.80822E-03 +1.37470E-02 +9.95693E-01 -2.47577E-02
3.39593668 +9.90945E-01 -2.70808E-02 +3.60120E-03 +7.89659E-03 +7.28751E-03 +1.25431E-02 +9.91578E-01 -3.32871E-02
3.19711668 +9.85297E-01 -3.65658E-02 +5.74439E-05 +9.41840E-03 +4.82041E-05 +1.02906E-02 +9.88618E-01 -3.61921E-02
2.99563668 +9.85970E-01 -4.03017E-02 -2.83851E-03 +1.77150E-02 +1.66999E-03 +1.72753E-02 +9.86995E-01 -4.03166E-02
2.89537668 +9.88543E-01 -3.93732E-02 +1.08359E-03 +1.45640E-02 +3.31358E-03 +1.37170E-02 +9.91717E-01 -2.90981E-02
2.79521668 +9.93010E-01 -3.96581E-02 -1.62405E-03 +1.42413E-02 +1.29723E-03 +1.16999E-02 +9.86436E-01 -2.71780E-02
2.69704668 +9.86557E-01 -3.74868E-02 +6.22185E-03 +7.19477E-03 +8.60736E-04 +1.77244E-02 +9.95906E-01 -3.10353E-02
2.59558668 +9.93464E-01 -2.95171E-02 +6.73135E-04 +2.05761E-02 -3.01383E-03 +7.58974E-03 +9.87927E-01 -3.99475E-02
2.49636668 +9.95879E-01 -3.49699E-02 -1.00684E-03 +1.85567E-02 +1.88027E-03 +1.76306E-02 +9.89727E-01 -3.50817E-02
2.44615668 +9.88172E-01 -4.27132E-02 -2.16750E-03 +1.26006E-02 +5.48333E-03 +2.42209E-02 +9.95686E-01 -3.54226E-02
2.39610668 +9.91956E-01 -3.74883E-02 +5.29469E-03 +1.67557E-02 -6.12104E-04 +1.66822E-02 +9.86074E-01 -3.83013E-02
2.34654668 +9.87491E-01 -3.66225E-02 +5.54064E-03 +4.23766E-03 -7.21848E-03 +8.25924E-03 +1.00059E+00 -3.16084E-02
2.29609668 +9.97403E-01 -4.47804E-02 -4.33765E-03 +2.14329E-02 -4.23017E-03 +1.97857E-02 +9.94373E-01 -3.80508E-02
2.24628668 +9.88902E-01 -3.67726E-02 +5.89046E-03 +1.53986E-02 +2.85927E-03 +1.76601E-02 +9.91996E-01 -3.97864E-02
2.19615668 +9.96777E-01 -4.22033E-02 -9.57342E-04 +2.27346E-02 +2.93757E-03 +2.17288E-02 +9.94189E-01 -4.40424E-02
2.14683668 +9.89232E-01 -4.17227E-02 +2.29343E-03 +2.05256E-02 +4.38539E-03 +2.50140E-02 +9.98046E-01 -3.51575E-02
2.09565668 +9.84075E-01 -5.05805E-02 +7.89839E-03 +2.34550E-02 +5.16415E-04 +2.08720E-02 +9.96487E-01 -4.63935E-02
2.04649668 +9.91614E-01 -4.80056E-02 -1.73603E-03 +1.95913E-02 +3.07817E-03 +1.86236E-02 +9.96130E-01 -4.63792E-02
1.99692668 +9.92884E-01 -4.98107E-02 +3.12889E-04 +2.49754E-02 +8.75131E-03 +1.76235E-02 +9.85237E-01 -4.59203E-02
1.94639668 +9.99219E-01 -5.06782E-02 -7.77102E-03 +1.90856E-02 +1.67564E-03 +2.50522E-02 +9.64765E-01 -4.52033E-02
1.89618668 +9.91914E-01 -4.95149E-02 -6.87937E-03 +2.29581E-02 +5.33453E-03 +2.51200E-02 +9.13352E-01 -3.62858E-02
1.84702668 +9.95729E-01 -6.15481E-02 -1.38489E-02 +2.34799E-02 +4.35339E-03 +2.59668E-02 +8.10264E-01 -3.38170E-02
1.79745668 +9.95892E-01 -6.13309E-02 -2.15442E-02 +2.70949E-02 +1.17107E-02 +2.06950E-02 +6.48166E-01 -2.79524E-02
1.74604668 +9.92311E-01 -5.81465E-02 -2.03328E-02 +2.33128E-02 +3.17083E-03 +2.32340E-02 +4.64857E-01 -2.35855E-02
1.69615668 +9.99778E-01 -6.20731E-02 -2.42942E-02 +2.21278E-02 +2.52335E-03 +2.09080E-02 +2.72773E-01 -2.01819E-02
1.64642668 +9.90320E-01 -6.48175E-02 -2.13662E-02 +1.48109E-02 +3.72514E-04 +1.78357E-02 +1.25412E-01 -1.44599E-02
1.59613668 +9.91869E-01 -6.33329E-02 -1.83799E-02 +1.27492E-02 +3.28525E-05 +7.35940E-03 +5.66433E-03 -5.09141E-03
1.54633668 +9.96622E-01 -6.44718E-02 -9.69125E-03 +1.28542E-02 +5.26661E-03 +1.33849E-02 -7.19329E-02 -7.97579E-03
1.49748668 +9.91975E-01 -6.33613E-02 -1.15105E-02 +2.11970E-02 +2.80577E-03 +1.62178E-02 -1.45588E-01 -3.91718E-03
1.44711668 +9.98846E-01 -5.86519E-02 -9.09193E-03 +1.21977E-02 +3.71218E-04 +1.39755E-02 -1.88945E-01 -6.42196E-03
1.39714668 +9.89651E-01 -7.10870E-02 -5.80315E-03 +2.03609E-03 +6.42771E-03 +9.41775E-03 -2.23596E-01 -8.85499E-03
1.34718668 +9.95456E-01 -6.58515E-02 -1.94489E-03 +1.20782E-02 -1.74689E-03 +7.80739E-03 -2.51951E-01 -3.66471E-03
1.29681668 +9.89467E-01 -6.37072E-02 -2.33742E-03 +9.14891E-03 +2.43221E-03 +1.02999E-02 -2.75201E-01 -5.68946E-03
1.24764668 +9.95359E-01 -7.14216E-02 -2.88070E-03 +2.00453E-02 +8.29411E-04 +7.70206E-03 -2.87246E-01 -6.16112E-03
1.19671668 +9.85063E-01 -6.90146E-02 -3.96842E-03 +1.04854E-02 -2.17666E-03 +8.44200E-03 -3.11140E-01 -7.18587E-03
1.14730668 +9.92502E-01 -6.66995E-02 +4.04576E-03 +1.16701E-02 +2.95864E-03 +7.04464E-03 -3.23078E-01 -3.76687E-04
1.09653668 +9.91301E-01 -6.93712E-02 -1.45664E-03 +7.45580E-03 -2.38352E-03 +7.42216E-03 -3.33708E-01 -4.15337E-03
1.04673668 +9.96274E-01 -6.69138E-02 -5.72670E-03 +5.44034E-03 +9.27136E-05 +1.41246E-02 -3.41979E-01 -4.57932E-03
0.99684368 +9.94037E-01 -7.18335E-02 -6.67499E-03 +1.24029E-02 -7.50423E-04 +1.49772E-02 -3.53033E-01 -2.46662E-03
0.94695568 +9.99777E-01 -7.10725E-02 -1.74257E-03 +4.00059E-03 -2.17147E-03 +9.22744E-03 -3.49107E-01 -8.68628E-03
0.89778968 +1.00247E+00 -6.71754E-02 -1.00461E-03 +1.03725E-02 +2.68628E-03 +1.01338E-02 -3.65833E-01 +1.43218E-05
0.84621768 +9.91606E-01 -7.33775E-02 -2.58871E-03 +9.97390E-03 +1.09419E-03 +1.07028E-02 -3.66901E-01 -9.91526E-03
0.79777368 +9.94754E-01 -6.50642E-02 -2.92115E-03 +1.02927E-02 -2.97082E-03 +6.56269E-03 -3.69539E-01 -3.85108E-03
0.74828568 +9.94310E-01 -6.92807E-02 +2.69348E-03 +1.22458E-02 -5.56696E-03 +6.77930E-03 -3.80866E-01 -6.05744E-04
0.69711568 +9.92663E-01 -7.16640E-02 -1.40050E-03 +3.62522E-03 +3.75147E-04 +5.32710E-03 -3.83130E-01 +2.23752E-03
0.59846268 +9.93825E-01 -6.98642E-02 -2.25670E-03 +6.03740E-03 +5.07920E-03 +8.32892E-03 -3.86471E-01 +1.62270E-03
0.49716368 +9.94544E-01 -7.17158E-02 -4.67728E-04 +6.31726E-03 +1.53293E-04 +1.76436E-03 -3.92997E-01 -9.06245E-03
0.39826868 +9.89012E-01 -6.43134E-02 -3.87610E-04 +9.63624E-03 +9.84379E-03 +1.47278E-02 -3.91768E-01 -3.91881E-03
0.29801168 +9.91829E-01 -6.37061E-02 +1.54740E-03 +1.04348E-02 +1.57280E-03 +6.31859E-03 -3.94667E-01 -1.59132E-03
0.19863667999999998 +9.99717E-01 -7.04847E-02 -4.30009E-03 +5.93823E-03 -3.12185E-03 +6.77651E-03 -3.96615E-01 -5.04735E-03
0.09797968 +9.93389E-01 -7.31680E-02 +9.00992E-04 +5.40617E-03 -1.09627E-04 +1.08916E-02 -4.03897E-01 -6.12529E-03
-0.002759153 +9.96894E-01 -6.55225E-02 -3.66390E-04 +3.14501E-03 -3.10885E-03 +4.05148E-03 -4.06408E-01 +2.55322E-04
-0.20215132 +9.91260E-01 -7.12123E-02 +4.93274E-03 +6.31146E-03 -3.02382E-03 +1.10123E-02 -4.10436E-01 -2.50226E-03
-0.40282532 +9.91854E-01 -7.17807E-02 +2.84694E-03 +5.61571E-03 -1.11059E-03 +1.22423E-02 -4.15309E-01 +6.50446E-03
-0.60149532 +9.93512E-01 -6.62669E-02 -2.35258E-03 +1.29975E-03 +8.33469E-04 +8.42144E-03 -4.16894E-01 +1.52283E-03
-0.80160832 +9.92322E-01 -7.23710E-02 -2.97306E-03 +1.06696E-02 +1.26453E-05 +1.51049E-02 -4.14105E-01 -6.66839E-03
-1.00188032 +9.93164E-01 -7.39349E-02 +3.42644E-03 +6.63274E-03 -1.57491E-03 +3.88930E-03 -4.16882E-01 -4.82635E-03
!!A3
! Frequency : +3.00000E+08
# Hz S RI R 50
3.99537668 +9.75714E-01 -4.18067E-02 +3.50960E-03 +1.46066E-02 +4.56993E-03 +1.18228E-02 +9.92016E-01 -2.79410E-02
3.79638668 +9.79958E-01 -3.51677E-02 +8.31594E-03 +1.37105E-02 +9.06142E-03 +1.35121E-02 +9.87363E-01 -3.73520E-02
3.59596668 +9.82211E-01 -4.64895E-02 +4.79567E-03 +1.45077E-02 -1.08382E-03 +1.07546E-02 +9.86754E-01 -3.85610E-02
3.39593668 +9.85179E-01 -4.15807E-02 -7.10167E-04 +1.03709E-02 +4.07682E-03 +1.48339E-02 +9.94594E-01 -3.17406E-02
3.19711668 +9.91291E-01 -3.75729E-02 +1.88753E-03 +1.31178E-02 +3.80485E-03 +1.13194E-02 +9.87248E-01 -3.44938E-02
2.99563668 +9.85451E-01 -4.57826E-02 +4.68284E-03 +1.93526E-02 +3.98962E-03 +1.18343E-02 +9.88587E-01 -3.22894E-02
2.89537668 +9.84237E-01 -3.70459E-02 -6.46204E-04 +1.53251E-02 +2.22280E-03 +1.79058E-02 +9.85512E-01 -3.77708E-02
2.79521668 +9.88396E-01 -4.71041E-02 +8.03325E-03 +1.42060E-02 +3.80091E-03 +1.30349E-02 +9.91217E-01 -3.63775E-02
2.69704668 +9.90337E-01 -3.90862E-02 +2.33347E-03 +9.26939E-03 -4.88109E-03 +1.71037E-02 +9.93257E-01 -3.43438E-02
2.59558668 +9.89562E-01 -4.45129E-02 +3.20207E-03 +2.18616E-02 +8.15735E-03 +1.89869E-02 +9.93247E-01 -3.47147E-02
2.49636668 +9.93341E-01 -5.02799E-02 +2.66723E-03 +1.65474E-02 +1.34487E-03 +1.41417E-02 +9.92645E-01 -2.89760E-02
2.44615668 +9.90909E-01 -4.82309E-02 +1.50197E-03 +1.31107E-02 +1.45588E-03 +1.58182E-02 +9.95976E-01 -3.55255E-02
2.39610668 +9.96493E-01 -4.73898E-02 -1.13677E-04 +1.35044E-02 -2.72018E-04 +1.89458E-02 +9.92416E-01 -4.16761E-02
2.34654668 +9.93618E-01 -4.90721E-02 -1.47137E-03 +2.08157E-02 +8.14329E-06 +1.40200E-02 +9.95745E-01 -4.16566E-02
2.29609668 +9.85729E-01 -4.32526E-02 +4.27787E-03 +2.11385E-02 +8.56620E-04 +2.22558E-02 +9.93904E-01 -4.10399E-02
2.24628668 +9.92343E-01 -4.99446E-02 +6.39361E-04 +1.90969E-02 +4.99776E-04 +2.27534E-02 +9.90310E-01 -3.61706E-02
2.19615668 +9.93784E-01 -5.09482E-02 -2.48932E-04 +2.13023E-02 +3.28525E-04 +2.69135E-02 +9.90204E-01 -3.77674E-02
2.14683668 +9.88789E-01 -5.11673E-02 +4.45942E-03 +2.53531E-02 +2.01377E-03 +2.92815E-02 +9.87574E-01 -4.32640E-02
2.09565668 +9.84850E-01 -5.47509E-02 -1.72587E-03 +2.51478E-02 +7.50675E-03 +2.31756E-02 +9.86876E-01 -3.88078E-02
2.04649668 +9.90747E-01 -5.81698E-02 +4.67097E-03 +2.93342E-02 -1.21276E-03 +2.34312E-02 +9.86986E-01 -4.81052E-02
1.99692668 +9.88454E-01 -5.32495E-02 -5.52456E-03 +2.80906E-02 +3.96672E-03 +2.88589E-02 +9.82702E-01 -4.55788E-02
1.94639668 +9.96514E-01 -6.26820E-02 -4.03412E-03 +2.53536E-02 -5.26866E-04 +2.67692E-02 +9.67642E-01 -4.55279E-02
1.89618668 +9.89446E-01 -5.77124E-02 -9.61204E-03 +2.55195E-02 +4.62555E-03 +2.74480E-02 +9.07180E-01 -4.43900E-02
1.84702668 +9.93250E-01 -6.27874E-02 -1.14893E-02 +2.50352E-02 +2.71673E-03 +2.32969E-02 +8.10084E-01 -4.21016E-02
1.79745668 +9.86968E-01 -6.80644E-02 -2.26797E-02 +2.56667E-02 +1.62647E-03 +2.87189E-02 +6.48588E-01 -3.22535E-02
1.74604668 +9.91032E-01 -6.82546E-02 -2.27010E-02 +2.68196E-02 -2.26073E-03 +2.17331E-02 +4.60148E-01 -2.09031E-02
1.69615668 +9.88113E-01 -7.86777E-02 -2.19374E-02 +2.11398E-02 +2.99845E-03 +2.05619E-02 +2.77164E-01 -2.09223E-02
1.64642668 +9.91144E-01 -7.57882E-02 -1.88758E-02 +1.78116E-02 +3.10966E-03 +2.24879E-02 +1.23501E-01 -1.56073E-02
1.59613668 +9.88900E-01 -7.58388E-02 -2.08183E-02 +1.66330E-02 +3.41736E-03 +1.39495E-02 +8.13533E-03 -1.72881E-02
1.54633668 +9.88533E-01 -7.53683E-02 -1.47193E-02 +1.45845E-02 +7.43875E-03 +9.71828E-03 -7.68880E-02 -7.93103E-03
1.49748668 +9.85861E-01 -8.11426E-02 -1.42464E-02 +1.17142E-02 +2.66239E-04 +1.93524E-02 -1.43426E-01 -6.72069E-03
1.44711668 +9.90986E-01 -7.81824E-02 -9.87167E-03 +1.59592E-02 +1.80921E-03 +1.83377E-02 -1.88370E-01 -7.22096E-03
1.39714668 +9.91398E-01 -8.00430E-02 -7.42851E-03 +1.20858E-02 +2.28520E-03 +1.15814E-02 -2.21007E-01 -7.02651E-03
1.34718668 +9.88961E-01 -7.33507E-02 -4.03366E-03 +1.54984E-02 +4.51540E-03 +1.51680E-02 -2.53825E-01 -5.09938E-03
1.29681668 +9.87129E-01 -7.73007E-02 -1.33258E-03 +1.43876E-02 -1.38918E-03 +6.17781E-03 -2.78779E-01 -8.24653E-03
1.24764668 +9.91395E-01 -8.15311E-02 +3.68114E-03 +1.13305E-02 +6.96118E-03 +1.56623E-02 -2.91857E-01 -5.01702E-03
1.19671668 +9.90474E-01 -8.82807E-02 -1.44166E-03 +7.99074E-03 +5.80700E-03 +1.33213E-02 -3.12313E-01 -7.49900E-03
1.14730668 +9.85720E-01 -8.11844E-02 -4.58931E-03 +1.60064E-02 -3.78835E-03 +5.82295E-03 -3.18467E-01 +1.58091E-04
1.09653668 +9.84990E-01 -8.13048E-02 -1.01668E-03 +7.50410E-03 +1.51588E-03 +1.32559E-02 -3.31649E-01 -3.52927E-03
1.04673668 +9.95539E-01 -8.12005E-02 +7.79201E-04 +1.48635E-02 +3.77008E-03 +1.45374E-02 -3.41845E-01 -1.60748E-03
0.99684368 +9.88816E-01 -8.16946E-02 +1.26066E-03 +1.18706E-02 +4.28945E-04 +5.32023E-03 -3.47069E-01 -5.89519E-04
0.94695568 +9.89182E-01 -8.32520E-02 -2.88097E-03 +1.38107E-02 +2.84182E-04 +7.05743E-03 -3.50955E-01 +1.09364E-03
0.89778968 +9.88079E-01 -8.87907E-02 -5.70077E-04 +1.12553E-02 +9.25673E-04 +8.77375E-03 -3.54685E-01 -3.41326E-03
0.84621768 +9.91990E-01 -8.49792E-02 +3.95867E-04 +5.38586E-03 +1.57515E-03 +1.04237E-02 -3.66333E-01 -2.38704E-03
0.79777368 +9.88016E-01 -8.40205E-02 +2.18519E-03 +7.04210E-03 -2.88459E-04 +6.61624E-03 -3.71072E-01 -1.58572E-03
0.74828568 +9.90255E-01 -8.10015E-02 -3.24802E-03 +7.69020E-03 -3.27033E-03 +8.34402E-03 -3.76356E-01 -6.53098E-04
0.69711568 +9.90656E-01 -8.52540E-02 -6.61534E-04 +1.21107E-02 -4.43487E-03 +1.27799E-02 -3.79652E-01 -1.35232E-03
0.59846268 +9.87559E-01 -8.47100E-02 -3.24949E-03 +7.98217E-03 +3.56356E-03 +6.66656E-03 -3.87673E-01 -4.89587E-03
0.49716368 +9.93682E-01 -8.29155E-02 +5.00151E-03 +1.22628E-02 +5.86206E-03 +1.26251E-02 -3.89777E-01 -6.93991E-03
0.39826868 +9.91492E-01 -8.18662E-02 +3.42251E-03 +6.52788E-03 -9.59795E-05 +1.26748E-02 -3.91958E-01 -2.54817E-03
0.29801168 +9.83335E-01 -7.90446E-02 +1.31063E-03 +8.79702E-03 -4.74232E-03 +8.92826E-03 -3.99412E-01 -1.25304E-03
0.19863667999999998 +9.89498E-01 -8.51036E-02 -5.07919E-03 +8.83527E-03 +2.18130E-03 +6.83931E-03 -3.98782E-01 -4.79184E-04
